(0.297000) vcan2 12A#122010FF00001080
(2.713000) vcan2 1E1#00000400000000
(7.647000) vcan2 0F1#B10000400000
(10.240000) vcan2 135#0400000200000000
(12.778000) vcan2 1F3#000000
(15.153000) vcan2 451#000000000000
(17.670000) vcan2 0F1#8D0000400000
(20.251000) vcan2 137#0000000030000000
(22.741000) vcan2 3F1#00FF5F0C00FF0100
(27.657000) vcan2 0F1#990000400000
(30.210000) vcan2 139#0000000000000000
(32.718000) vcan2 1E1#000004000104F0
(35.159000) vcan2 451#000000000000
(37.676000) vcan2 0F1#A50000400000
(40.144000) vcan2 1F3#404000
(42.773000) vcan2 32A#0000000000000000
(50.172000) vcan2 0F1#B10000400000
(52.666000) vcan2 451#000000000000
(57.674000) vcan2 0F1#8D0000400000
(60.231000) vcan2 1E1#000004000208E0
(67.675000) vcan2 0F1#990000400000
(70.316000) vcan2 1F1#050A000008000070
(72.627000) vcan2 1F3#808000
(75.172000) vcan2 451#000000000000
(77.694000) vcan2 0F1#A50000400000
(80.201000) vcan2 3C9#0766000000000000
(87.680000) vcan2 0F1#B10000400000
(90.180000) vcan2 160#1C2A2E8703
(92.751000) vcan2 1E1#00000400030CD0
(95.236000) vcan2 451#000000000000
(97.704000) vcan2 0F1#8D0000400000
(100.345000) vcan2 12A#122010FF00001090
(102.640000) vcan2 1F3#C0C000
(107.691000) vcan2 0F1#990000400000
(110.282000) vcan2 135#0400000200000000
(112.861000) vcan2 451#000000000000
(117.698000) vcan2 0F1#A50000400000
(120.295000) vcan2 137#0000000030000000
(122.762000) vcan2 1E1#00000400000000
(127.700000) vcan2 0F1#B10000400000
(130.256000) vcan2 139#0000000000000000
(132.649000) vcan2 1F3#000000
(135.202000) vcan2 451#000000000000
(137.724000) vcan2 0F1#8D0000400000
(140.325000) vcan2 32A#0000000000000000
(147.710000) vcan2 0F1#990000400000
(150.282000) vcan2 1E1#000004000104F0
(152.717000) vcan2 451#000000000000
(157.713000) vcan2 0F1#A50000400000
(160.167000) vcan2 1F3#404000
(167.718000) vcan2 0F1#B10000400000
(170.359000) vcan2 1F1#050A000008000070
(172.715000) vcan2 451#000000000000
(177.723000) vcan2 0F1#8D0000400000
(180.284000) vcan2 1E1#000004000208E0
(182.747000) vcan2 3C9#0766000000000000
(187.724000) vcan2 0F1#990000400000
(190.227000) vcan2 160#1C2A2E8703
(192.710000) vcan2 1F3#808000
(195.262000) vcan2 451#000000000000
(197.745000) vcan2 0F1#A50000400000
(200.434000) vcan2 12A#122010FF000010A0
(207.736000) vcan2 0F1#B10000400000
(210.325000) vcan2 135#0400000200000000
(212.973000) vcan2 1E1#00000400030CD0
(215.240000) vcan2 451#000000000000
(217.757000) vcan2 0F1#8D0000400000
(220.337000) vcan2 137#0000000030000000
(222.688000) vcan2 1F3#C0C000
(227.744000) vcan2 0F1#990000400000
(230.299000) vcan2 139#0000000000000000
(232.737000) vcan2 451#000000000000
(237.749000) vcan2 0F1#A50000400000
(240.366000) vcan2 1E1#00000400000000
(242.874000) vcan2 32A#0000000000000000
(247.752000) vcan2 0F1#B10000400000
(250.253000) vcan2 1F3#000000
(252.755000) vcan2 451#000000000000
(257.761000) vcan2 0F1#8D0000400000
(267.758000) vcan2 0F1#990000400000
(270.235000) vcan2 120#000160F100
(272.822000) vcan2 1E1#000004000104F0
(275.403000) vcan2 1F1#050A000008000070
(277.777000) vcan2 0F1#A50000400000
(280.218000) vcan2 1F3#404000
(282.789000) vcan2 3C9#0766000000000000
(285.355000) vcan2 3F1#00FF5F0C00FF0100
(287.784000) vcan2 0F1#B10000400000
(290.287000) vcan2 140#000A00
(292.793000) vcan2 160#1C2A2E8703
(295.316000) vcan2 451#000000000000
(297.791000) vcan2 0F1#8D0000400000
(300.442000) vcan2 12A#122010FF000010B0
(302.836000) vcan2 1E1#000004000208E0
(305.271000) vcan2 4C5#0000000000
(307.792000) vcan2 0F1#990000400000
(310.368000) vcan2 135#0400000200000000
(312.911000) vcan2 1F3#808000
(315.282000) vcan2 451#000000000000
(317.798000) vcan2 0F1#A50000400000
(320.381000) vcan2 137#0000000030000000
(322.782000) vcan2 4E1#4843373933343934
(325.284000) vcan2 4E9#112000000300
(327.801000) vcan2 0F1#B10000400000
(330.342000) vcan2 139#0000000000000000
(332.845000) vcan2 1E1#00000400030CD0
(335.287000) vcan2 451#000000000000
(337.810000) vcan2 0F1#8D0000400000
(340.313000) vcan2 1F3#C0C000
(342.881000) vcan2 32A#0000000000000000
(345.348000) vcan2 514#304C444436453733
(347.809000) vcan2 0F1#990000400000
(350.319000) vcan2 451#000000000000
(352.862000) vcan2 52A#000037373737
(355.297000) vcan2 530#00000000
(357.810000) vcan2 0F1#A50000400000
(360.368000) vcan2 1E1#00000400000000
(367.801000) vcan2 0F1#B10000400000
(370.447000) vcan2 1F1#050A000008000070
(372.756000) vcan2 1F3#000000
(375.307000) vcan2 451#000000000000
(377.826000) vcan2 0F1#8D0000400000
(380.325000) vcan2 3C9#0766000000000000
(387.813000) vcan2 0F1#990000400000
(390.330000) vcan2 160#1C2A2E8703
(392.923000) vcan2 1E1#000004000104F0
(395.407000) vcan2 451#000000000000
(397.832000) vcan2 0F1#A50000400000
(400.473000) vcan2 12A#122010FF00001080
(402.769000) vcan2 1F3#404000
(407.821000) vcan2 0F1#B10000400000
(410.410000) vcan2 135#0400000200000000
(412.991000) vcan2 451#000000000000
(417.830000) vcan2 0F1#8D0000400000
(420.423000) vcan2 137#0000000030000000
(422.886000) vcan2 1E1#000004000208E0
(427.831000) vcan2 0F1#990000400000
(430.386000) vcan2 139#0000000000000000
(432.781000) vcan2 1F3#808000
(435.329000) vcan2 451#000000000000
(437.848000) vcan2 0F1#A50000400000
(440.451000) vcan2 32A#0000000000000000
(447.837000) vcan2 0F1#B10000400000
(450.406000) vcan2 1E1#00000400030CD0
(452.861000) vcan2 451#000000000000
(457.844000) vcan2 0F1#8D0000400000
(460.297000) vcan2 1F3#C0C000
(467.846000) vcan2 0F1#990000400000
(470.486000) vcan2 1F1#050A000008000070
(472.845000) vcan2 451#000000000000
(477.851000) vcan2 0F1#A50000400000
(480.421000) vcan2 1E1#00000400000000
(482.876000) vcan2 3C9#0766000000000000
(487.856000) vcan2 0F1#B10000400000
(490.356000) vcan2 160#1C2A2E8703
(492.839000) vcan2 1F3#000000
(495.388000) vcan2 451#000000000000
(497.878000) vcan2 0F1#8D0000400000
(500.557000) vcan2 12A#122010FF00001090
(507.864000) vcan2 0F1#990000400000
(510.454000) vcan2 135#0400000200000000
(513.101000) vcan2 1E1#000004000104F0
(515.366000) vcan2 451#000000000000
(517.884000) vcan2 0F1#A50000400000
(520.467000) vcan2 137#0000000030000000
(522.820000) vcan2 1F3#404000
(525.461000) vcan2 3F1#00FF5F0C00FF0100
(527.887000) vcan2 0F1#B10000400000
(530.428000) vcan2 139#0000000000000000
(532.871000) vcan2 451#000000000000
(537.880000) vcan2 0F1#8D0000400000
(540.487000) vcan2 1E1#000004000208E0
(542.986000) vcan2 32A#0000000000000000
(547.879000) vcan2 0F1#990000400000
(550.352000) vcan2 1F3#808000
(552.889000) vcan2 451#000000000000
(557.886000) vcan2 0F1#A50000400000
(567.890000) vcan2 0F1#B10000400000
(570.451000) vcan2 1E1#00000400030CD0
(573.035000) vcan2 1F1#050A000008000070
(575.390000) vcan2 451#000000000000
(577.913000) vcan2 0F1#8D0000400000
(580.346000) vcan2 1F3#C0C000
(582.916000) vcan2 3C9#0766000000000000
(587.900000) vcan2 0F1#990000400000
(590.399000) vcan2 160#1C2A2E8703
(592.903000) vcan2 451#000000000000
(597.905000) vcan2 0F1#A50000400000
(600.546000) vcan2 12A#122010FF000010A0
(602.971000) vcan2 1E1#00000400000000
(607.908000) vcan2 0F1#B10000400000
(610.497000) vcan2 135#0400000200000000
(613.037000) vcan2 1F3#000000
(615.408000) vcan2 451#000000000000
(617.929000) vcan2 0F1#8D0000400000
(620.510000) vcan2 137#0000000030000000
(627.914000) vcan2 0F1#990000400000
(630.471000) vcan2 139#0000000000000000
(632.976000) vcan2 1E1#000004000104F0
(635.419000) vcan2 451#000000000000
(637.933000) vcan2 0F1#A50000400000
(640.442000) vcan2 1F3#404000
(642.993000) vcan2 32A#0000000000000000
(647.924000) vcan2 0F1#B10000400000
(650.479000) vcan2 451#000000000000
(657.935000) vcan2 0F1#8D0000400000
(660.492000) vcan2 1E1#000004000208E0
(667.933000) vcan2 0F1#990000400000
(670.572000) vcan2 1F1#050A000008000070
(672.882000) vcan2 1F3#808000
(675.435000) vcan2 451#000000000000
(677.952000) vcan2 0F1#A50000400000
(680.456000) vcan2 3C9#0766000000000000
(687.845000) vcan2 0F1#B10000400000
(690.354000) vcan2 160#1C2A2E8703
(692.944000) vcan2 1E1#00000400030CD0
(695.431000) vcan2 451#000000000000
(697.866000) vcan2 0F1#8D0000400000
(700.508000) vcan2 12A#122010FF000010B0
(702.801000) vcan2 1F3#C0C000
(707.853000) vcan2 0F1#990000400000
(710.442000) vcan2 135#0400000200000000
(713.024000) vcan2 451#000000000000
(717.854000) vcan2 0F1#A50000400000
(720.455000) vcan2 137#0000000030000000
(722.925000) vcan2 1E1#00000400000000
(727.859000) vcan2 0F1#B10000400000
(730.416000) vcan2 139#0000000000000000
(732.814000) vcan2 1F3#000000
(735.363000) vcan2 451#000000000000
(737.884000) vcan2 0F1#8D0000400000
(740.472000) vcan2 32A#0000000000000000
(747.871000) vcan2 0F1#990000400000
(750.462000) vcan2 1E1#000004000104F0
(752.896000) vcan2 451#000000000000
(757.874000) vcan2 0F1#A50000400000
(760.325000) vcan2 1F3#404000
(767.881000) vcan2 0F1#B10000400000
(770.516000) vcan2 1F1#050A000008000070
(772.967000) vcan2 3F1#00FF5F0C00FF0100
(775.376000) vcan2 451#000000000000
(777.902000) vcan2 0F1#8D0000400000
(780.445000) vcan2 1E1#000004000208E0
(782.904000) vcan2 3C9#0766000000000000
(785.374000) vcan2 4C5#0000000000
(787.901000) vcan2 0F1#990000400000
(790.398000) vcan2 160#1C2A2E8703
(792.864000) vcan2 1F3#808000
(795.413000) vcan2 451#000000000000
(797.906000) vcan2 0F1#A50000400000
(800.582000) vcan2 12A#122010FF00001080
(807.893000) vcan2 0F1#B10000400000
(810.486000) vcan2 135#0400000200000000
(813.130000) vcan2 1E1#00000400030CD0
(815.401000) vcan2 451#000000000000
(817.916000) vcan2 0F1#8D0000400000
(820.501000) vcan2 137#0000000030000000
(822.852000) vcan2 1F3#C0C000
(827.903000) vcan2 0F1#990000400000
(830.456000) vcan2 139#0000000000000000
(832.901000) vcan2 451#000000000000
(837.910000) vcan2 0F1#A50000400000
(840.521000) vcan2 1E1#00000400000000
(843.016000) vcan2 32A#0000000000000000
(847.913000) vcan2 0F1#B10000400000
(850.386000) vcan2 1F3#000000
(852.913000) vcan2 451#000000000000
(857.922000) vcan2 0F1#8D0000400000
(867.922000) vcan2 0F1#990000400000
(870.484000) vcan2 1E1#000004000104F0
(873.063000) vcan2 1F1#050A000008000070
(875.416000) vcan2 451#000000000000
(877.939000) vcan2 0F1#A50000400000
(880.379000) vcan2 1F3#404000
(882.948000) vcan2 3C9#0766000000000000
(887.930000) vcan2 0F1#B10000400000
(890.404000) vcan2 160#1C2A2E8703
(893.001000) vcan2 451#000000000000
(897.935000) vcan2 0F1#8D0000400000
(900.573000) vcan2 12A#122010FF00001090
(902.998000) vcan2 1E1#000004000208E0
(907.936000) vcan2 0F1#990000400000
(910.530000) vcan2 135#0400000200000000
(913.067000) vcan2 1F3#808000
(915.442000) vcan2 451#000000000000
(917.958000) vcan2 0F1#A50000400000
(920.541000) vcan2 137#0000000030000000
(927.948000) vcan2 0F1#B10000400000
(930.500000) vcan2 139#0000000000000000
(933.007000) vcan2 1E1#00000400030CD0
(935.450000) vcan2 451#000000000000
(937.969000) vcan2 0F1#8D0000400000
(940.467000) vcan2 1F3#C0C000
(943.036000) vcan2 32A#0000000000000000
(947.956000) vcan2 0F1#990000400000
(950.546000) vcan2 451#000000000000
(957.961000) vcan2 0F1#A50000400000
(960.529000) vcan2 1E1#00000400000000
(967.966000) vcan2 0F1#B10000400000
(970.607000) vcan2 1F1#050A000008000070
(972.916000) vcan2 1F3#000000
(975.464000) vcan2 451#000000000000
(977.987000) vcan2 0F1#8D0000400000
(980.490000) vcan2 3C9#0766000000000000
(987.970000) vcan2 0F1#990000400000
(990.471000) vcan2 160#1C2A2E8703
(993.044000) vcan2 1E1#000004000104F0
(995.528000) vcan2 451#000000000000
(997.991000) vcan2 0F1#A50000400000
(1000.634000) vcan2 12A#122010FF000010A0
(1002.932000) vcan2 1F3#404000
(1007.982000) vcan2 0F1#B10000400000
(1010.571000) vcan2 135#0400000200000000
(1013.153000) vcan2 451#000000000000
(1017.991000) vcan2 0F1#8D0000400000
(1020.584000) vcan2 137#0000000030000000
(1023.048000) vcan2 1E1#000004000208E0
(1025.579000) vcan2 3F1#00FF5F0C00FF0100
(1028.004000) vcan2 0F1#990000400000
(1030.546000) vcan2 139#0000000000000000
(1032.939000) vcan2 1F3#808000
(1035.492000) vcan2 451#000000000000
(1038.009000) vcan2 0F1#A50000400000
(1040.601000) vcan2 32A#0000000000000000
(1048.000000) vcan2 0F1#B10000400000
(1050.563000) vcan2 1E1#00000400030CD0
(1052.999000) vcan2 451#000000000000
(1058.007000) vcan2 0F1#8D0000400000
(1060.456000) vcan2 1F3#C0C000
(1068.008000) vcan2 0F1#990000400000
(1070.651000) vcan2 1F1#050A000008000070
(1073.006000) vcan2 451#000000000000
(1078.009000) vcan2 0F1#A50000400000
(1080.580000) vcan2 1E1#00000400000000
(1083.037000) vcan2 3C9#0766000000000000
(1088.014000) vcan2 0F1#B10000400000
(1090.523000) vcan2 160#1C2A2E8703
(1093.010000) vcan2 1F3#000000
(1095.576000) vcan2 451#000000000000
(1098.039000) vcan2 0F1#8D0000400000
(1100.702000) vcan2 12A#122010FF000010B0
(1108.026000) vcan2 0F1#990000400000
(1110.615000) vcan2 135#0400000200000000
(1113.264000) vcan2 1E1#000004000104F0
(1115.529000) vcan2 451#000000000000
(1118.043000) vcan2 0F1#A50000400000
(1120.628000) vcan2 137#0000000030000000
(1122.977000) vcan2 1F3#404000
(1128.035000) vcan2 0F1#B10000400000
(1130.591000) vcan2 139#0000000000000000
(1133.028000) vcan2 451#000000000000
(1138.044000) vcan2 0F1#8D0000400000
(1140.656000) vcan2 1E1#000004000208E0
(1143.099000) vcan2 32A#0000000000000000
(1148.043000) vcan2 0F1#990000400000
(1150.579000) vcan2 1F3#808000
(1153.058000) vcan2 451#000000000000
(1158.048000) vcan2 0F1#A50000400000
(1168.049000) vcan2 0F1#B10000400000
(1170.612000) vcan2 1E1#00000400030CD0
(1173.197000) vcan2 1F1#050A000008000070
(1175.551000) vcan2 451#000000000000
(1178.072000) vcan2 0F1#8D0000400000
(1180.509000) vcan2 1F3#C0C000
(1183.081000) vcan2 3C9#0766000000000000
(1188.059000) vcan2 0F1#990000400000
(1190.562000) vcan2 160#1C2A2E8703
(1193.088000) vcan2 451#000000000000
(1198.064000) vcan2 0F1#A50000400000
(1200.723000) vcan2 12A#122010FF00001080
(1203.132000) vcan2 1E1#00000400000000
(1208.069000) vcan2 0F1#B10000400000
(1210.658000) vcan2 135#0400000200000000
(1213.199000) vcan2 1F3#000000
(1215.573000) vcan2 451#000000000000
(1218.092000) vcan2 0F1#8D0000400000
(1220.671000) vcan2 137#0000000030000000
(1228.079000) vcan2 0F1#990000400000
(1230.632000) vcan2 139#0000000000000000
(1233.137000) vcan2 1E1#000004000104F0
(1235.577000) vcan2 451#000000000000
(1238.096000) vcan2 0F1#A50000400000
(1240.595000) vcan2 1F3#404000
(1243.173000) vcan2 32A#0000000000000000
(1248.087000) vcan2 0F1#B10000400000
(1250.626000) vcan2 451#000000000000
(1258.092000) vcan2 0F1#8D0000400000
(1260.653000) vcan2 1E1#000004000208E0
(1268.092000) vcan2 0F1#990000400000
(1270.736000) vcan2 1F1#050A000008000070
(1273.047000) vcan2 1F3#808000
(1275.686000) vcan2 3F1#00FF5F0C00FF0100
(1278.113000) vcan2 0F1#A50000400000
(1280.617000) vcan2 3C9#0766000000000000
(1283.096000) vcan2 451#000000000000
(1285.591000) vcan2 4C5#0000000000
(1288.117000) vcan2 0F1#B10000400000
(1290.646000) vcan2 140#000A00
(1293.077000) vcan2 160#1C2A2E8703
(1295.739000) vcan2 1E1#00000400030CD0
(1298.130000) vcan2 0F1#8D0000400000
(1300.817000) vcan2 12A#122010FF00001090
(1303.058000) vcan2 1F3#C0C000
(1305.610000) vcan2 451#000000000000
(1308.127000) vcan2 0F1#990000400000
(1310.700000) vcan2 135#0400000200000000
(1313.286000) vcan2 4E9#112000000300
(1315.631000) vcan2 52A#000037373737
(1318.130000) vcan2 0F1#A50000400000
(1320.714000) vcan2 137#0000000030000000
(1323.183000) vcan2 1E1#00000400000000
(1325.616000) vcan2 451#000000000000
(1328.134000) vcan2 0F1#B10000400000
(1330.677000) vcan2 139#0000000000000000
(1333.072000) vcan2 1F3#000000
(1335.623000) vcan2 4E1#4843373933343934
(1338.143000) vcan2 0F1#8D0000400000
(1340.738000) vcan2 32A#0000000000000000
(1343.157000) vcan2 451#000000000000
(1345.663000) vcan2 514#304C444436453733
(1348.140000) vcan2 0F1#990000400000
(1350.699000) vcan2 1E1#000004000104F0
(1353.136000) vcan2 451#000000000000
(1355.630000) vcan2 530#00000000
(1358.145000) vcan2 0F1#A50000400000
(1360.586000) vcan2 1F3#404000
(1368.136000) vcan2 0F1#B10000400000
(1370.775000) vcan2 1F1#050A000008000070
(1373.134000) vcan2 451#000000000000
(1378.147000) vcan2 0F1#8D0000400000
(1380.704000) vcan2 1E1#000004000208E0
(1383.165000) vcan2 3C9#0766000000000000
(1388.146000) vcan2 0F1#990000400000
(1390.663000) vcan2 160#1C2A2E8703
(1393.146000) vcan2 1F3#808000
(1395.695000) vcan2 451#000000000000
(1398.165000) vcan2 0F1#A50000400000
(1400.854000) vcan2 12A#122010FF000010A0
(1408.155000) vcan2 0F1#B10000400000
(1410.747000) vcan2 135#0400000200000000
(1413.388000) vcan2 1E1#00000400030CD0
(1415.655000) vcan2 451#000000000000
(1418.177000) vcan2 0F1#8D0000400000
(1420.758000) vcan2 137#0000000030000000
(1423.111000) vcan2 1F3#C0C000
(1428.164000) vcan2 0F1#990000400000
(1430.719000) vcan2 139#0000000000000000
(1433.160000) vcan2 451#000000000000
(1438.167000) vcan2 0F1#A50000400000
(1440.790000) vcan2 1E1#00000400000000
(1443.245000) vcan2 32A#0000000000000000
(1448.170000) vcan2 0F1#B10000400000
(1450.663000) vcan2 1F3#000000
(1453.188000) vcan2 451#000000000000
(1458.178000) vcan2 0F1#8D0000400000
(1468.181000) vcan2 0F1#990000400000
(1470.742000) vcan2 1E1#000004000104F0
(1473.326000) vcan2 1F1#050A000008000070
(1475.679000) vcan2 451#000000000000
(1478.198000) vcan2 0F1#A50000400000
(1480.637000) vcan2 1F3#404000
(1483.205000) vcan2 3C9#0766000000000000
(1488.189000) vcan2 0F1#B10000400000
(1490.692000) vcan2 160#1C2A2E8703
(1493.216000) vcan2 451#000000000000
(1498.198000) vcan2 0F1#8D0000400000
(1500.845000) vcan2 12A#122010FF000010B0
(1503.256000) vcan2 1E1#000004000208E0
(1508.199000) vcan2 0F1#990000400000
(1510.788000) vcan2 135#0400000200000000
(1513.326000) vcan2 1F3#808000
(1515.699000) vcan2 451#000000000000
(1518.216000) vcan2 0F1#A50000400000
(1520.801000) vcan2 137#0000000030000000
(1523.291000) vcan2 3F1#00FF5F0C00FF0100
(1528.203000) vcan2 0F1#B10000400000
(1530.762000) vcan2 139#0000000000000000
(1533.266000) vcan2 1E1#00000400030CD0
(1535.709000) vcan2 451#000000000000
(1538.228000) vcan2 0F1#8D0000400000
(1540.716000) vcan2 1F3#C0C000
(1543.283000) vcan2 32A#0000000000000000
(1548.213000) vcan2 0F1#990000400000
(1550.717000) vcan2 451#000000000000
(1558.220000) vcan2 0F1#A50000400000
(1560.787000) vcan2 1E1#00000400000000
(1568.225000) vcan2 0F1#B10000400000
(1570.862000) vcan2 1F1#050A000008000070
(1573.173000) vcan2 1F3#000000
(1575.727000) vcan2 451#000000000000
(1578.246000) vcan2 0F1#8D0000400000
(1580.747000) vcan2 3C9#0766000000000000
(1588.233000) vcan2 0F1#990000400000
(1590.736000) vcan2 160#1C2A2E8703
(1593.307000) vcan2 1E1#000004000104F0
(1595.790000) vcan2 451#000000000000
(1598.250000) vcan2 0F1#A50000400000
(1600.901000) vcan2 12A#122010FF00001080
(1603.190000) vcan2 1F3#404000
(1608.241000) vcan2 0F1#B10000400000
(1610.830000) vcan2 135#0400000200000000
(1613.411000) vcan2 451#000000000000
(1618.247000) vcan2 0F1#8D0000400000
(1620.843000) vcan2 137#0000000030000000
(1623.306000) vcan2 1E1#000004000208E0
(1628.246000) vcan2 0F1#990000400000
(1630.806000) vcan2 139#0000000000000000
(1633.201000) vcan2 1F3#808000
(1635.752000) vcan2 451#000000000000
(1638.268000) vcan2 0F1#A50000400000
(1640.871000) vcan2 32A#0000000000000000
(1648.258000) vcan2 0F1#B10000400000
(1650.842000) vcan2 1E1#00000400030CD0
(1653.275000) vcan2 451#000000000000
(1658.267000) vcan2 0F1#8D0000400000
(1660.715000) vcan2 1F3#C0C000
(1668.268000) vcan2 0F1#990000400000
(1670.905000) vcan2 1F1#050A000008000070
(1673.261000) vcan2 451#000000000000
(1678.271000) vcan2 0F1#A50000400000
(1680.840000) vcan2 1E1#00000400000000
(1683.292000) vcan2 3C9#0766000000000000
(1688.376000) vcan2 0F1#B10000400000
(1690.883000) vcan2 160#1C2A2E8703
(1693.367000) vcan2 1F3#000000
(1695.918000) vcan2 451#000000000000
(1698.397000) vcan2 0F1#8D0000400000
(1701.083000) vcan2 12A#122010FF00001090
(1708.382000) vcan2 0F1#990000400000
(1710.973000) vcan2 135#0400000200000000
(1713.621000) vcan2 1E1#000004000104F0
(1715.888000) vcan2 451#000000000000
(1718.401000) vcan2 0F1#A50000400000
(1720.990000) vcan2 137#0000000030000000
(1723.341000) vcan2 1F3#404000
(1728.392000) vcan2 0F1#B10000400000
(1730.945000) vcan2 139#0000000000000000
(1733.391000) vcan2 451#000000000000
(1738.403000) vcan2 0F1#8D0000400000
(1741.008000) vcan2 1E1#000004000208E0
(1743.509000) vcan2 32A#0000000000000000
(1748.402000) vcan2 0F1#990000400000
(1750.873000) vcan2 1F3#808000
(1753.404000) vcan2 451#000000000000
(1758.407000) vcan2 0F1#A50000400000
(1768.411000) vcan2 0F1#B10000400000
(1770.971000) vcan2 1E1#00000400030CD0
(1773.552000) vcan2 1F1#050A000008000070
(1775.999000) vcan2 3F1#00FF5F0C00FF0100
(1778.432000) vcan2 0F1#8D0000400000
(1780.868000) vcan2 1F3#C0C000
(1783.437000) vcan2 3C9#0766000000000000
(1785.910000) vcan2 451#000000000000
(1788.432000) vcan2 0F1#990000400000
(1790.923000) vcan2 160#1C2A2E8703
(1793.426000) vcan2 4C5#0000000000
(1798.421000) vcan2 0F1#A50000400000
(1801.080000) vcan2 12A#122010FF000010A0
(1803.491000) vcan2 1E1#00000400000000
(1805.927000) vcan2 451#000000000000
(1808.440000) vcan2 0F1#B10000400000
(1811.019000) vcan2 135#0400000200000000
(1813.556000) vcan2 1F3#000000
(1818.435000) vcan2 0F1#8D0000400000
(1821.030000) vcan2 137#0000000030000000
(1823.429000) vcan2 451#000000000000
(1828.436000) vcan2 0F1#990000400000
(1830.989000) vcan2 139#0000000000000000
(1833.496000) vcan2 1E1#000004000104F0
(1835.940000) vcan2 451#000000000000
(1838.455000) vcan2 0F1#A50000400000
(1840.952000) vcan2 1F3#404000
(1843.520000) vcan2 32A#0000000000000000
(1848.446000) vcan2 0F1#B10000400000
(1850.959000) vcan2 451#000000000000
(1858.455000) vcan2 0F1#8D0000400000
(1861.012000) vcan2 1E1#000004000208E0
(1868.453000) vcan2 0F1#990000400000
(1871.095000) vcan2 1F1#050A000008000070
(1873.404000) vcan2 1F3#808000
(1875.951000) vcan2 451#000000000000
(1878.471000) vcan2 0F1#A50000400000
(1880.978000) vcan2 3C9#0766000000000000
(1888.459000) vcan2 0F1#B10000400000
(1890.969000) vcan2 160#1C2A2E8703
(1893.558000) vcan2 1E1#00000400030CD0
(1896.043000) vcan2 451#000000000000
(1898.482000) vcan2 0F1#8D0000400000
(1901.156000) vcan2 12A#122010FF000010B0
(1903.433000) vcan2 1F3#C0C000
(1908.470000) vcan2 0F1#990000400000
(1911.059000) vcan2 135#0400000200000000
(1913.640000) vcan2 451#000000000000
(1918.475000) vcan2 0F1#A50000400000
(1921.074000) vcan2 137#0000000030000000
(1923.541000) vcan2 1E1#00000400000000
(1928.480000) vcan2 0F1#B10000400000
(1931.035000) vcan2 139#0000000000000000
(1933.426000) vcan2 1F3#000000
(1935.980000) vcan2 451#000000000000
(1938.501000) vcan2 0F1#8D0000400000
(1941.064000) vcan2 32A#0000000000000000
(1948.490000) vcan2 0F1#990000400000
(1951.139000) vcan2 1E1#000004000104F0
(1953.496000) vcan2 451#000000000000
(1958.493000) vcan2 0F1#A50000400000
(1960.946000) vcan2 1F3#404000
(1968.497000) vcan2 0F1#B10000400000
(1971.139000) vcan2 1F1#050A000008000070
(1973.494000) vcan2 451#000000000000
(1978.502000) vcan2 0F1#8D0000400000
(1979.724000) vcan2 101#FE021002FE021002
(1981.067000) vcan2 1E1#000004000208E0
(1983.526000) vcan2 3C9#0766000000000000
(1988.502000) vcan2 0F1#990000400000
(1990.982000) vcan2 160#1C2A2E8703
(1993.485000) vcan2 1F3#808000
(1996.114000) vcan2 451#000000000000
(1998.523000) vcan2 0F1#A50000400000
(2001.229000) vcan2 12A#122010FF00001080
(2003.522000) vcan2 641#01501A3186418231
(2008.515000) vcan2 0F1#B10000400000
(2011.104000) vcan2 135#0400000200000000
(2013.751000) vcan2 1E1#00000400030CD0
(2016.019000) vcan2 451#000000000000
(2018.536000) vcan2 0F1#8D0000400000
(2021.117000) vcan2 137#0000000030000000
(2023.467000) vcan2 1F3#C0C000
(2026.110000) vcan2 3F1#00FF5F0C00FF0100
(2028.537000) vcan2 0F1#990000400000
(2031.078000) vcan2 139#0000000000000000
(2033.518000) vcan2 451#000000000000
(2038.528000) vcan2 0F1#A50000400000
(2041.141000) vcan2 1E1#00000400000000
(2043.639000) vcan2 32A#0000000000000000
(2048.531000) vcan2 0F1#B10000400000
(2051.010000) vcan2 1F3#000000
(2053.536000) vcan2 451#000000000000
(2058.540000) vcan2 0F1#8D0000400000
(2060.444000) vcan2 101#FE021002FE021002
(2068.538000) vcan2 0F1#990000400000
(2071.103000) vcan2 1E1#000004000104F0
(2073.684000) vcan2 1F1#050A000008000070
(2076.037000) vcan2 451#000000000000
(2078.557000) vcan2 0F1#A50000400000
(2080.998000) vcan2 1F3#404000
(2083.567000) vcan2 3C9#0766000000000000
(2086.057000) vcan2 641#01501A3186418231
(2088.568000) vcan2 0F1#B10000400000
(2091.021000) vcan2 160#1C2A2E8703
(2093.569000) vcan2 451#000000000000
(2098.557000) vcan2 0F1#8D0000400000
(2101.208000) vcan2 12A#122010FF00001090
(2103.615000) vcan2 1E1#000004000208E0
(2108.558000) vcan2 0F1#990000400000
(2111.147000) vcan2 135#0400000200000000
(2113.688000) vcan2 1F3#808000
(2116.062000) vcan2 451#000000000000
(2118.575000) vcan2 0F1#A50000400000
(2121.160000) vcan2 137#0000000030000000
(2128.566000) vcan2 0F1#B10000400000
(2131.121000) vcan2 139#0000000000000000
(2133.624000) vcan2 1E1#00000400030CD0
(2136.064000) vcan2 451#000000000000
(2138.589000) vcan2 0F1#8D0000400000
(2141.062000) vcan2 1F3#C0C000
(2143.298000) vcan2 101#FE012803FE012800
(2143.658000) vcan2 32A#0000000000000000
(2148.575000) vcan2 0F1#990000400000
(2151.090000) vcan2 641#01681A3186418231
(2207.192000) vcan2 101#FE01A203FE01A200
(2221.098000) vcan2 641#02E2003186418231
(2278.067000) vcan2 101#FE02A501FE02A501
(2291.161000) vcan2 641#01E5003186418231
(2347.941000) vcan2 101#FE02A503FE02A503
(2605.377000) vcan2 241#0227013186418253
(2611.267000) vcan2 641#046701D6C6418231
(2625.512000) vcan2 101#FE013E4000604D40
(2681.230000) vcan2 241#0427021238418253
(2691.229000) vcan2 641#026702D6C6418231
(2697.126000) vcan2 241#021AB01230000000
(2701.230000) vcan2 641#035AB040C0000000
(2707.008000) vcan2 241#021AC04030000000
(2711.254000) vcan2 641#065AC000C0000000
(2716.999000) vcan2 241#021ACB00C0000000
(2721.211000) vcan2 641#065ACB00C0000000
(2727.009000) vcan2 241#021ACC00C0000000
(2731.221000) vcan2 641#065ACC00C0000000
(2737.004000) vcan2 241#021AD000C0000000
(2741.228000) vcan2 641#045AD04740000000
(2803.759000) vcan2 241#0634000000139453
(2811.253000) vcan2 641#037F3478446FC831
(3366.134000) vcan2 641#0174
(3422.745000) vcan2 101#FE013E4000604D40
(3426.673000) vcan2 241#10333600FEDF15CD
(3426.871000) vcan2 641#300001
(3427.103000) vcan2 241#2106000000000000
(3431.863000) vcan2 241#22F7000000000000
(3436.861000) vcan2 241#2323000000000000
(3441.860000) vcan2 241#2434000000000000
(3446.862000) vcan2 241#259D000000000000
(3451.857000) vcan2 241#2636000000000000
(3456.861000) vcan2 241#2764000000000000
(3457.041000) vcan2 641#0176
(3465.541000) vcan2 101#FE013E4000604D40
(3469.528000) vcan2 241#10333600FEDF1438
(3469.725000) vcan2 641#300001
(3469.954000) vcan2 241#2164000000000000
(3474.854000) vcan2 241#223D000000000000
(3479.860000) vcan2 241#23F6000000000000
(3484.857000) vcan2 241#2463000000000000
(3489.859000) vcan2 241#25CA000000000000
(3494.858000) vcan2 241#2677000000000000
(3499.864000) vcan2 241#2738000000000000
(3500.044000) vcan2 641#0176
(3508.546000) vcan2 101#FE013E4000604D40
(3512.531000) vcan2 241#10333600FEDF15A0
(3512.728000) vcan2 641#300001
(3512.962000) vcan2 241#2167000000000000
(3517.859000) vcan2 241#2256000000000000
(3522.855000) vcan2 241#2394000000000000
(3527.858000) vcan2 241#248F000000000000
(3532.862000) vcan2 241#25C5000000000000
(3537.866000) vcan2 241#26E2000000000000
(3542.863000) vcan2 241#2791000000000000
(3543.044000) vcan2 641#0176
(3551.415000) vcan2 101#FE013E4000604D40
(3555.419000) vcan2 241#10333600FEDF12FD
(3555.617000) vcan2 641#300001
(3555.845000) vcan2 241#21E0000000000000
(3560.854000) vcan2 241#2213000000000000
(3565.854000) vcan2 241#235B000000000000
(3570.854000) vcan2 241#2484000000000000
(3575.859000) vcan2 241#25D0000000000000
(3580.857000) vcan2 241#260F000000000000
(3585.856000) vcan2 241#27CF000000000000
(3586.037000) vcan2 641#0176
(3594.290000) vcan2 101#FE013E4000604D40
(3598.280000) vcan2 241#10333600FEDF110E
(3598.478000) vcan2 641#300001
(3598.716000) vcan2 241#2108000000000000
(3603.857000) vcan2 241#2267000000000000
(3608.861000) vcan2 241#2308000000000000
(3613.865000) vcan2 241#2400000000000000
(3618.860000) vcan2 241#2504000000000000
(3623.862000) vcan2 241#2647000000000000
(3628.860000) vcan2 241#2780000000000000
(3629.038000) vcan2 641#0176
(3637.295000) vcan2 101#FE013E4000604D40
(3641.287000) vcan2 241#10333600FEDF14BF
(3641.483000) vcan2 641#300001
(3641.713000) vcan2 241#21A6000000000000
(3646.853000) vcan2 241#2238000000000000
(3651.852000) vcan2 241#2320000000000000
(3656.856000) vcan2 241#2410000000000000
(3661.851000) vcan2 241#2566000000000000
(3666.849000) vcan2 241#26C8000000000000
(3671.853000) vcan2 241#2713000000000000
(3672.031000) vcan2 641#0176
(3680.174000) vcan2 101#FE013E4000604D40
(3684.167000) vcan2 241#10333600FEDF12D0
(3684.361000) vcan2 641#300001
(3684.590000) vcan2 241#2139000000000000
(3688.860000) vcan2 241#22AB000000000000
(3693.859000) vcan2 241#2390000000000000
(3698.861000) vcan2 241#24EB000000000000
(3703.861000) vcan2 241#25B7000000000000
(3708.860000) vcan2 241#26C9000000000000
(3713.860000) vcan2 241#2731000000000000
(3714.038000) vcan2 641#0176
(3722.181000) vcan2 101#FE013E4000604D40
(3726.173000) vcan2 241#10333600FEDF113B
(3726.371000) vcan2 641#300001
(3726.609000) vcan2 241#2147000000000000
(3730.861000) vcan2 241#2280000000000000
(3735.867000) vcan2 241#2300000000000000
(3740.858000) vcan2 241#2434000000000000
(3745.866000) vcan2 241#2505000000000000
(3750.867000) vcan2 241#2674000000000000
(3755.863000) vcan2 241#2706000000000000
(3756.041000) vcan2 641#0176
(3765.049000) vcan2 101#FE013E4000604D40
(3769.048000) vcan2 241#10333600FEDF11EF
(3769.247000) vcan2 641#300001
(3769.476000) vcan2 241#2196000000000000
(3773.854000) vcan2 241#2249000000000000
(3778.854000) vcan2 241#2324000000000000
(3783.855000) vcan2 241#24FC000000000000
(3788.859000) vcan2 241#255B000000000000
(3793.853000) vcan2 241#26E3000000000000
(3798.856000) vcan2 241#2712000000000000
(3799.039000) vcan2 641#0176
(3807.976000) vcan2 101#FE013E4000604D40
(3811.973000) vcan2 241#10333600FEDF1276
(3812.170000) vcan2 641#300001
(3812.398000) vcan2 241#214F000000000000
(3816.859000) vcan2 241#220D000000000000
(3821.859000) vcan2 241#2344000000000000
(3826.854000) vcan2 241#2466000000000000
(3831.856000) vcan2 241#25AA000000000000
(3836.858000) vcan2 241#2694000000000000
(3841.853000) vcan2 241#2722000000000000
(3842.032000) vcan2 641#0176
(3850.799000) vcan2 101#FE013E4000604D40
(3854.793000) vcan2 241#10333600FEDF10E1
(3854.989000) vcan2 641#300001
(3855.223000) vcan2 241#21FF000000000000
(3859.860000) vcan2 241#2205000000000000
(3864.856000) vcan2 241#2359000000000000
(3869.850000) vcan2 241#242C000000000000
(3874.861000) vcan2 241#2500000000000000
(3879.859000) vcan2 241#26C8000000000000
(3884.858000) vcan2 241#2700000000000000
(3885.037000) vcan2 641#0176
(3893.804000) vcan2 101#FE013E4000604D40
(3897.682000) vcan2 241#10333600FEDF12A3
(3897.880000) vcan2 641#300001
(3898.114000) vcan2 241#218F000000000000
(3902.850000) vcan2 241#2298000000000000
(3907.847000) vcan2 241#2342000000000000
(3912.855000) vcan2 241#24BB000000000000
(3917.850000) vcan2 241#252A000000000000
(3922.854000) vcan2 241#263F000000000000
(3927.850000) vcan2 241#271E000000000000
(3928.030000) vcan2 641#0176
(3936.681000) vcan2 101#FE013E4000604D40
(3940.673000) vcan2 241#10333600FEDF132A
(3940.871000) vcan2 641#300001
(3941.101000) vcan2 241#216B000000000000
(3945.853000) vcan2 241#22B5000000000000
(3950.848000) vcan2 241#2359000000000000
(3955.850000) vcan2 241#2488000000000000
(3960.854000) vcan2 241#2530000000000000
(3965.851000) vcan2 241#2674000000000000
(3970.855000) vcan2 241#27EB000000000000
(3971.035000) vcan2 641#0176
(3979.552000) vcan2 101#FE013E4000604D40
(3983.536000) vcan2 241#101F3600FEDF1627
(3983.734000) vcan2 641#300001
(3983.960000) vcan2 241#214D5A4C2B2C2D36
(3988.864000) vcan2 241#223035FFFFFFFFFF
(3993.871000) vcan2 241#23FFFFFFFFFFFFFF
(3998.855000) vcan2 241#24FFFFFFFF8A2977
(3999.035000) vcan2 641#0176
(4007.559000) vcan2 101#FE013E4000604D40
(4011.544000) vcan2 241#10333600FEDF102D
(4011.741000) vcan2 641#300001
(4011.978000) vcan2 241#2100000000000000
(4016.856000) vcan2 241#2280000000000000
(4021.856000) vcan2 241#2305000000000000
(4026.851000) vcan2 241#247F000000000000
(4031.857000) vcan2 241#25FD000000000000
(4036.853000) vcan2 241#26B5000000000000
(4041.856000) vcan2 241#27FE000000000000
(4042.036000) vcan2 641#0176
(4050.438000) vcan2 101#FE013E4000604D40
(4054.441000) vcan2 241#10333600FEDF15FA
(4054.638000) vcan2 641#300001
(4054.864000) vcan2 241#21B8000000000000
(4059.845000) vcan2 241#22A6000000000000
(4064.847000) vcan2 241#232E000000000000
(4069.844000) vcan2 241#24CC000000000000
(4074.848000) vcan2 241#255E000000000000
(4079.850000) vcan2 241#26FF000000000000
(4084.847000) vcan2 241#2763000000000000
(4085.026000) vcan2 641#0176
(4093.303000) vcan2 101#FE013E4000604D40
(4097.299000) vcan2 241#10333600FEDF1087
(4097.495000) vcan2 641#300001
(4097.735000) vcan2 241#215F000000000000
(4102.850000) vcan2 241#2280000000000000
(4107.848000) vcan2 241#2300000000000000
(4112.848000) vcan2 241#24EA000000000000
(4117.849000) vcan2 241#2500000000000000
(4122.855000) vcan2 241#2608000000000000
(4127.846000) vcan2 241#2700000000000000
(4128.027000) vcan2 641#0176
(4136.304000) vcan2 101#FE013E4000604D40
(4140.292000) vcan2 241#10333600FEDF14EC
(4140.488000) vcan2 641#300001
(4140.720000) vcan2 241#21DF000000000000
(4145.842000) vcan2 241#222A000000000000
(4150.847000) vcan2 241#2365000000000000
(4155.841000) vcan2 241#2426000000000000
(4160.840000) vcan2 241#25E9000000000000
(4165.846000) vcan2 241#2616000000000000
(4170.846000) vcan2 241#27CA000000000000
(4171.024000) vcan2 641#0176
(4179.149000) vcan2 101#FE013E4000604D40
(4183.177000) vcan2 241#10333600FEDF10B4
(4183.373000) vcan2 641#300001
(4183.611000) vcan2 241#2101000000000000
(4187.849000) vcan2 241#2200000000000000
(4192.844000) vcan2 241#23C5000000000000
(4197.846000) vcan2 241#2477000000000000
(4202.838000) vcan2 241#25CE000000000000
(4207.847000) vcan2 241#266E000000000000
(4212.843000) vcan2 241#270B000000000000
(4213.021000) vcan2 641#0176
(4221.190000) vcan2 101#FE013E4000604D40
(4225.168000) vcan2 241#10333600FEDF1573
(4225.366000) vcan2 641#300001
(4225.600000) vcan2 241#21AF000000000000
(4229.842000) vcan2 241#222F000000000000
(4234.842000) vcan2 241#23FF000000000000
(4239.843000) vcan2 241#241A000000000000
(4244.841000) vcan2 241#2566000000000000
(4249.842000) vcan2 241#2605000000000000
(4254.842000) vcan2 241#27A0000000000000
(4255.022000) vcan2 641#0176
(4263.058000) vcan2 101#FE013E4000604D40
(4267.039000) vcan2 241#10333600FEDF1465
(4267.238000) vcan2 641#300001
(4267.469000) vcan2 241#219F000000000000
(4271.837000) vcan2 241#2206000000000000
(4276.835000) vcan2 241#2390000000000000
(4281.838000) vcan2 241#241F000000000000
(4286.840000) vcan2 241#2555000000000000
(4291.838000) vcan2 241#26FA000000000000
(4296.841000) vcan2 241#274F000000000000
(4297.021000) vcan2 641#0176
(4305.977000) vcan2 101#FE013E4000604D40
(4309.970000) vcan2 241#10333600FEDF1195
(4310.167000) vcan2 641#300001
(4310.397000) vcan2 241#217E000000000000
(4314.834000) vcan2 241#2268000000000000
(4319.840000) vcan2 241#23C2000000000000
(4324.837000) vcan2 241#2400000000000000
(4329.837000) vcan2 241#2518000000000000
(4334.831000) vcan2 241#26AF000000000000
(4339.842000) vcan2 241#27AF000000000000
(4340.023000) vcan2 641#0176
(4348.978000) vcan2 101#FE013E4000604D40
(4352.800000) vcan2 241#10333600FEDF1249
(4352.996000) vcan2 641#300001
(4353.224000) vcan2 241#210F000000000000
(4357.833000) vcan2 241#22F6000000000000
(4362.837000) vcan2 241#2377000000000000
(4367.835000) vcan2 241#24AA000000000000
(4372.832000) vcan2 241#25D6000000000000
(4377.834000) vcan2 241#2627000000000000
(4382.841000) vcan2 241#27E7000000000000
(4383.020000) vcan2 641#0176
(4391.803000) vcan2 101#FE013E4000604D40
(4395.793000) vcan2 241#10333600FEDF11C2
(4395.993000) vcan2 641#300001
(4396.229000) vcan2 241#21AF000000000000
(4400.833000) vcan2 241#224C000000000000
(4405.834000) vcan2 241#237F000000000000
(4410.832000) vcan2 241#246F000000000000
(4415.833000) vcan2 241#2589000000000000
(4420.839000) vcan2 241#2615000000000000
(4425.835000) vcan2 241#27D4000000000000
(4426.015000) vcan2 641#0176
(4434.698000) vcan2 101#FE013E4000604D40
(4438.674000) vcan2 241#10333600FEDF1168
(4438.872000) vcan2 641#300001
(4439.108000) vcan2 241#2140000000000000
(4443.840000) vcan2 241#2246000000000000
(4448.833000) vcan2 241#2370000000000000
(4453.829000) vcan2 241#248E000000000000
(4458.835000) vcan2 241#2572000000000000
(4463.828000) vcan2 241#26B2000000000000
(4468.832000) vcan2 241#2763000000000000
(4469.012000) vcan2 641#0176
(4477.677000) vcan2 101#FE013E4000604D40
(4481.547000) vcan2 241#10333600FEDF1492
(4481.743000) vcan2 641#300001
(4481.973000) vcan2 241#21CA000000000000
(4486.829000) vcan2 241#22D5000000000000
(4491.830000) vcan2 241#23D2000000000000
(4496.828000) vcan2 241#2433000000000000
(4501.828000) vcan2 241#25ED000000000000
(4506.833000) vcan2 241#26F0000000000000
(4511.833000) vcan2 241#27D3000000000000
(4512.013000) vcan2 641#0176
(4520.554000) vcan2 101#FE013E4000604D40
(4524.546000) vcan2 241#10333600FEDF1546
(4524.744000) vcan2 641#300001
(4524.974000) vcan2 241#2154000000000000
(4529.830000) vcan2 241#2245000000000000
(4534.826000) vcan2 241#23D6000000000000
(4539.829000) vcan2 241#240C000000000000
(4544.829000) vcan2 241#2536000000000000
(4549.828000) vcan2 241#2690000000000000
(4554.828000) vcan2 241#279C000000000000
(4555.010000) vcan2 641#0176
(4563.430000) vcan2 101#FE013E4000604D40
(4567.415000) vcan2 241#10333600FEDF121C
(4567.614000) vcan2 641#300001
(4567.843000) vcan2 241#21EC000000000000
(4572.823000) vcan2 241#225D000000000000
(4577.835000) vcan2 241#233F000000000000
(4582.824000) vcan2 241#2474000000000000
(4587.822000) vcan2 241#25A9000000000000
(4592.826000) vcan2 241#2672000000000000
(4597.827000) vcan2 241#277F000000000000
(4598.007000) vcan2 641#0176
(4606.357000) vcan2 101#FE013E4000604D40
(4610.302000) vcan2 241#10333600FEDF1000
(4610.529000) vcan2 641#300001
(4610.767000) vcan2 241#21E0000000000000
(4615.832000) vcan2 241#2202000000000000
(4620.830000) vcan2 241#2324000000000000
(4625.833000) vcan2 241#2406000000000000
(4630.833000) vcan2 241#2540000000000000
(4635.833000) vcan2 241#260D000000000000
(4640.826000) vcan2 241#2725000000000000
(4641.004000) vcan2 641#0176
(4649.300000) vcan2 101#FE013E4000604D40
(4653.290000) vcan2 241#10333600FEDF1519
(4653.486000) vcan2 641#300001
(4653.718000) vcan2 241#219B000000000000
(4658.821000) vcan2 241#222D000000000000
(4663.827000) vcan2 241#230A000000000000
(4668.831000) vcan2 241#24A0000000000000
(4673.828000) vcan2 241#25F5000000000000
(4678.822000) vcan2 241#2695000000000000
(4683.813000) vcan2 241#27CC000000000000
(4683.994000) vcan2 641#0176
(4692.166000) vcan2 101#FE013E4000604D40
(4696.170000) vcan2 241#10333600FEDF1384
(4696.368000) vcan2 641#300001
(4696.602000) vcan2 241#21D4000000000000
(4701.807000) vcan2 241#2262000000000000
(4706.807000) vcan2 241#2327000000000000
(4711.809000) vcan2 241#2466000000000000
(4716.816000) vcan2 241#25B3000000000000
(4721.810000) vcan2 241#2646000000000000
(4726.816000) vcan2 241#27FE000000000000
(4726.994000) vcan2 641#0176
(4735.157000) vcan2 101#FE013E4000604D40
(4739.155000) vcan2 241#10333600FEDF13B1
(4739.351000) vcan2 641#300001
(4739.585000) vcan2 241#21FD000000000000
(4744.809000) vcan2 241#225A000000000000
(4749.806000) vcan2 241#23BA000000000000
(4754.810000) vcan2 241#2466000000000000
(4759.805000) vcan2 241#2500000000000000
(4764.809000) vcan2 241#26A9000000000000
(4769.815000) vcan2 241#27D9000000000000
(4769.997000) vcan2 641#0176
(4778.044000) vcan2 101#FE013E4000604D40
(4782.034000) vcan2 241#10333600FEDF13DE
(4782.232000) vcan2 641#300001
(4782.466000) vcan2 241#21FF000000000000
(4786.804000) vcan2 241#22D9000000000000
(4791.805000) vcan2 241#2382000000000000
(4796.803000) vcan2 241#2454000000000000
(4801.807000) vcan2 241#25E4000000000000
(4806.800000) vcan2 241#2661000000000000
(4811.810000) vcan2 241#276F000000000000
(4811.990000) vcan2 641#0176
(4820.963000) vcan2 101#FE013E4000604D40
(4824.963000) vcan2 241#10333600FEDF140B
(4825.161000) vcan2 641#300001
(4825.391000) vcan2 241#2157000000000000
(4829.805000) vcan2 241#228A000000000000
(4834.803000) vcan2 241#2333000000000000
(4839.804000) vcan2 241#2444000000000000
(4844.802000) vcan2 241#2520000000000000
(4849.801000) vcan2 241#268B000000000000
(4854.805000) vcan2 241#279A000000000000
(4854.983000) vcan2 641#0176
(4863.795000) vcan2 101#FE013E4000604D40
(4867.772000) vcan2 241#10333600FEDF1357
(4867.971000) vcan2 641#300001
(4868.198000) vcan2 241#21DE000000000000
(4872.808000) vcan2 241#228F000000000000
(4877.802000) vcan2 241#23F2000000000000
(4882.801000) vcan2 241#24EA000000000000
(4887.801000) vcan2 241#2551000000000000
(4892.801000) vcan2 241#26C9000000000000
(4897.806000) vcan2 241#2732000000000000
(4897.986000) vcan2 641#0176
(4906.796000) vcan2 101#FE013E4000604D40
(4910.781000) vcan2 241#10333600FEDF105A
(4910.976000) vcan2 641#300001
(4911.212000) vcan2 241#2101000000000000
(4915.815000) vcan2 241#2200000000000000
(4920.801000) vcan2 241#230A000000000000
(4925.808000) vcan2 241#2406000000000000
(4930.812000) vcan2 241#25EC000000000000
(4935.812000) vcan2 241#2600000000000000
(4940.803000) vcan2 241#27CB000000000000
(4940.982000) vcan2 641#0176
(4951.645000) vcan2 241#063680FEDF100001
